
T0348 000:806 SEGGER J-Link V4.15n (beta) Log File (0001ms, 0798ms total)
T0348 000:806 DLL Compiled: Jun 18 2010 19:55:09 (0001ms, 0798ms total)
T0348 000:806 Logging started @ 2016-02-02 11:37 (0001ms, 0798ms total)
T0348 000:807 JLINK_SetWarnOutHandler(...) (0000ms, 0799ms total)
T0348 000:807 JLINK_OpenEx(...)
Firmware: J-Link ARM V8 compiled May 20 2010 17:07:46
Hardware: V8.00
S/N: 805306163
Feature(s): RDI,FlashDL,FlashBP,JFlash,GDBFull  returns O.K. (0134ms, 0799ms total)
T0348 000:941 JLINK_SetErrorOutHandler(...) (0000ms, 0933ms total)
T0348 000:942 JLINK_ExecCommand("ProjectFile = "D:\王均伟\LWIP1.4.1在我移植的在板子上STM32+DP83848裸奔的程序\Lwip1.4.1+efls ByWang\SDK\JLinkSettings.ini"", ...)  returns 0x00 (0000ms, 0933ms total)
T0348 000:955 JLINK_ExecCommand("DisableConnectionTimeout", ...)  returns 0x00 (0000ms, 0933ms total)
T0348 000:955 JLINK_TIF_Select(JLINKARM_TIF_JTAG)  returns 0x00 (0000ms, 0933ms total)
T0348 000:955 JLINK_SetSpeed(2000) (0001ms, 0933ms total)
T0348 000:956 JLINK_GetHardwareVersion()  returns 0x13880 (0000ms, 0934ms total)
T0348 000:956 JLINK_GetDLLVersion()  returns 41514 (0000ms, 0934ms total)
T0348 000:956 JLINK_GetFirmwareString(...) (0000ms, 0934ms total)
T0348 000:965 JLINK_GetDLLVersion()  returns 41514 (0000ms, 0934ms total)
T0348 000:965 JLINK_GetCompileDateTime() (0000ms, 0934ms total)
T0348 000:967 JLINK_GetFirmwareString(...) (0000ms, 0934ms total)
T0348 000:969 JLINK_GetHardwareVersion()  returns 0x13880 (0000ms, 0934ms total)
T0348 000:978 JLINK_Reset() >0x2F8 JTAG>TotalIRLen = 9, IRPrint = 0x0011 >0x30 JTAG> >0x210 JTAG> >0x118 JTAG> >0xD8 JTAG> >0x198 JTAG> >0x38 JTAG> >0x118 JTAG> >0xD8 JTAG> >0x2F0 JTAG> >0x2F0 JTAG> >0x198 JTAG> >0x198 JTAG>Found Cortex-M3 r1p1, Little endian. >0xD8 JTAG> >0x240 JTAG> >0x198 JTAG> >0x240 JTAG> >0x198 JTAG>TPIU fitted. >0x198 JTAG>ETM fitted. >0x198 JTAG>  FPUnit: 6 code (BP) slots and 2 literal slots >0x198 JTAG> >0x250 JTAG> >0x240 JTAG> >0x280 JTAG> >0x198 JTAG> >0x198 JTAG>
 >0x240 JTAG> >0x240 JTAG> >0x198 JTAG> >0x198 JTAG> >0x17A8 JTAG> >0x240 JTAG> >0x198 JTAG> >0x17A8 JTAG> >0x198 JTAG> -- CPU_WriteMem(4 bytes @ 0xE000EDFC) -- CPU_WriteMem(4 bytes @ 0xE0001028) -- CPU_WriteMem(4 bytes @ 0xE0001038) -- CPU_WriteMem(4 bytes @ 0xE0001048) -- CPU_WriteMem(4 bytes @ 0xE0001058) (0081ms, 0934ms total)
T0348 001:060 JLINK_GetIdData(...) ScanLen=9 NumDevices=2 aId[0]=0x3BA00477 aIrRead[0]=0 aScanLen[0]=0 aScanRead[0]=0 (0000ms, 1015ms total)
T0348 001:060 JLINK_JTAG_GetDeviceID(DeviceIndex = 0)  returns 0x3BA00477 (0000ms, 1015ms total)
T0348 001:060 JLINK_JTAG_GetDeviceInfo(DeviceIndex = 0)  returns 0x00 (0000ms, 1015ms total)
T0348 001:061 JLINK_JTAG_GetDeviceID(DeviceIndex = 1)  returns 0x6418041 (0000ms, 1016ms total)
T0348 001:061 JLINK_JTAG_GetDeviceInfo(DeviceIndex = 1)  returns 0x00 (0000ms, 1016ms total)
T0348 001:061 JLINK_GetDebugInfo(0x100) -- Value=0xE00FF003  returns 0x00 (0000ms, 1016ms total)
T0348 001:062 JLINK_ReadMem (0xE00FF000, 0x0018 Bytes, ...) -- CPU_ReadMem(24 bytes @ 0xE00FF000) -- Data:  03 F0 F0 FF 03 20 F0 FF 03 30 F0 FF 03 10 F0 FF ...  returns 0x00 (0001ms, 1016ms total)
T0348 001:063 JLINK_ReadMemU32(0xE000ED00, 0x0001 Items, ...) -- CPU_ReadMem(4 bytes @ 0xE000ED00) -- Data:  31 C2 1F 41  returns 0x01 (0001ms, 1017ms total)
T0348 001:065 JLINK_Halt()  returns 0x00 (0000ms, 1018ms total)
T0348 001:065 JLINK_IsHalted()  returns TRUE (0000ms, 1018ms total)
T0348 001:065 JLINK_ReadMemU32(0xE000EDF0, 0x0001 Items, ...) -- CPU_ReadMem(4 bytes @ 0xE000EDF0) -- Data:  03 00 03 00  returns 0x01 (0001ms, 1018ms total)
T0348 001:066 JLINK_WriteU32(0xE000EDF0, 0xA05F0003) -- CPU_WriteMem(4 bytes @ 0xE000EDF0)  returns 0x00 (0000ms, 1019ms total)
T0348 001:066 JLINK_WriteU32(0xE000EDFC, 0x01000000) -- CPU_WriteMem(4 bytes @ 0xE000EDFC)  returns 0x00 (0000ms, 1019ms total)
T0348 001:066 JLINK_ReadMemU32(0xE0002000, 0x0001 Items, ...) -- CPU_ReadMem(4 bytes @ 0xE0002000) -- Data:  60 02 00 00  returns 0x01 (0002ms, 1019ms total)
T0348 001:068 JLINK_ReadMemU32(0xE0001000, 0x0001 Items, ...) -- CPU_ReadMem(4 bytes @ 0xE0001000) -- Data:  00 00 00 40  returns 0x01 (0001ms, 1021ms total)
T0348 001:075 JLINK_ExecCommand("Device = STM32F107VC", ...)
                JLINK_ExecCommand("map ram 0x20000000 - 0x20004FFF", ...)  returns 0x00 (0000ms, 0000ms total)
                JLINK_AddMirrorAreaEx(Addr = 0x00000000, Size = 0x00000000) (0000ms, 0000ms total)
                returns 0x00 (0001ms, 1022ms total)
T0348 001:076 JLINK_GetHWStatus(...)  returns 0x00 (0001ms, 1023ms total)
T0348 001:081 JLINK_GetNumBPUnits(Type = 0xFFFFFF00) >0x2F8 JTAG>TotalIRLen = 9, IRPrint = 0x0011 >0x30 JTAG> >0x210 JTAG> >0x118 JTAG> >0xD8 JTAG> >0x198 JTAG> >0x38 JTAG> >0x118 JTAG> >0xD8 JTAG> >0x2F0 JTAG> >0x2F0 JTAG> >0x198 JTAG> >0x198 JTAG>Found Cortex-M3 r1p1, Little endian. >0xD8 JTAG> >0x240 JTAG> >0x198 JTAG> >0x198 JTAG>TPIU fitted. >0x198 JTAG>ETM fitted. >0x198 JTAG>  FPUnit: 6 code (BP) slots and 2 literal slots >0x198 JTAG>  returns 0x06 (0033ms, 1024ms total)
T0348 001:114 JLINK_GetNumBPUnits(Type = 0xF0)  returns 0x800 (0000ms, 1057ms total)
T0348 001:114 JLINK_GetNumWPUnits()  returns 0x04 (0000ms, 1057ms total)
T0348 001:121 JLINK_GetSpeed()  returns 0x7D0 (0000ms, 1057ms total)
T0348 001:126 JLINK_ReadMemU32(0xE000E004, 0x0001 Items, ...) -- CPU_ReadMem(4 bytes @ 0xE000E004) -- Data:  02 00 00 00  returns 0x01 (0001ms, 1057ms total)
T0348 001:127 JLINK_WriteMem(0xE0001000, 0x001C Bytes, ...) -- Data:  01 00 00 00 00 00 00 00 00 00 00 00 00 00 00 00 ... -- CPU_WriteMem(28 bytes @ 0xE0001000)  returns 0x1C (0001ms, 1058ms total)
T0348 001:128 JLINK_ReadMem (0xE0001000, 0x001C Bytes, ...) -- CPU_ReadMem(28 bytes @ 0xE0001000) -- Data:  01 00 00 40 00 00 00 00 00 00 00 00 00 00 00 00 ...  returns 0x00 (0002ms, 1059ms total)
T0348 001:130 JLINK_Halt()  returns 0x00 (0000ms, 1061ms total)
T0348 001:130 JLINK_IsHalted()  returns TRUE (0000ms, 1061ms total)
T0348 001:134 JLINK_WriteMem(0x20000000, 0x0164 Bytes, ...) -- Data:  00 BE 0A E0 0D 78 2D 06 68 40 08 24 40 00 00 D3 ... -- CPU_WriteMem(356 bytes @ 0x20000000)  returns 0x164 (0004ms, 1061ms total)
T0348 001:138 JLINK_WriteReg(R0, 0x08000000)  returns 0x00 (0000ms, 1065ms total)
T0348 001:138 JLINK_WriteReg(R1, 0x017D7840)  returns 0x00 (0000ms, 1065ms total)
T0348 001:138 JLINK_WriteReg(R2, 0x00000001)  returns 0x00 (0000ms, 1065ms total)
T0348 001:138 JLINK_WriteReg(R3, 0x00000000)  returns 0x00 (0000ms, 1065ms total)
T0348 001:138 JLINK_WriteReg(R4, 0x00000000)  returns 0x00 (0000ms, 1065ms total)
T0348 001:138 JLINK_WriteReg(R5, 0x00000000)  returns 0x00 (0000ms, 1065ms total)
T0348 001:138 JLINK_WriteReg(R6, 0x00000000)  returns 0x00 (0000ms, 1065ms total)
T0348 001:138 JLINK_WriteReg(R7, 0x00000000)  returns 0x00 (0000ms, 1065ms total)
T0348 001:138 JLINK_WriteReg(R8, 0x00000000)  returns 0x00 (0000ms, 1065ms total)
T0348 001:138 JLINK_WriteReg(R9, 0x20000160)  returns 0x00 (0000ms, 1065ms total)
T0348 001:138 JLINK_WriteReg(R10, 0x00000000)  returns 0x00 (0000ms, 1065ms total)
T0348 001:138 JLINK_WriteReg(R11, 0x00000000)  returns 0x00 (0000ms, 1065ms total)
T0348 001:138 JLINK_WriteReg(R12, 0x00000000)  returns 0x00 (0000ms, 1065ms total)
T0348 001:138 JLINK_WriteReg(R13, 0x20000800)  returns 0x00 (0000ms, 1065ms total)
T0348 001:138 JLINK_WriteReg(R14, 0x20000001)  returns 0x00 (0000ms, 1065ms total)
T0348 001:138 JLINK_WriteReg(R15, 0x20000038)  returns 0x00 (0000ms, 1065ms total)
T0348 001:138 JLINK_WriteReg(XPSR, 0x01000000)  returns 0x00 (0000ms, 1065ms total)
T0348 001:138 JLINK_WriteReg(MSP, 0x20000800)  returns 0x00 (0000ms, 1065ms total)
T0348 001:138 JLINK_WriteReg(PSP, 0x20000800)  returns 0x00 (0000ms, 1065ms total)
T0348 001:138 JLINK_WriteReg(CFBP, 0x00000000)  returns 0x00 (0000ms, 1065ms total)
T0348 001:138 JLINK_SetBPEx(Addr = 0x20000000, Type = 0xFFFFFFF2) -- CPU_ReadMem(2 bytes @ 0x20000000)  returns 0x00000001 (0001ms, 1065ms total)
T0348 001:139 JLINK_Go() -- CPU_WriteMem(2 bytes @ 0x20000000) -- CPU_WriteMem(4 bytes @ 0xE0002008) -- CPU_WriteMem(4 bytes @ 0xE000200C) -- CPU_WriteMem(4 bytes @ 0xE0002010) -- CPU_WriteMem(4 bytes @ 0xE0002014) -- CPU_WriteMem(4 bytes @ 0xE0002018) -- CPU_WriteMem(4 bytes @ 0xE000201C) >0x320 JTAG> >0x218 JTAG> >0x218 JTAG> >0x218 JTAG> >0x218 JTAG> >0x218 JTAG> >0x218 JTAG> >0x218 JTAG> >0x218 JTAG> >0x218 JTAG> >0x218 JTAG> >0x218 JTAG> >0x218 JTAG> >0x218 JTAG> >0x218 JTAG> >0x218 JTAG>
 >0x218 JTAG> >0x240 JTAG> >0x240 JTAG> (0034ms, 1066ms total)
T0348 001:173 JLINK_IsHalted() >0x198 JTAG> >0x17A8 JTAG> -- CPU_ReadMem(2 bytes @ 0x20000000)  returns TRUE (0008ms, 1100ms total)
T0348 001:181 JLINK_ReadReg(R15)  returns 0x20000000 (0000ms, 1100ms total)
T0348 001:181 JLINK_ClrBPEx(BPHandle = 0x00000001)  returns 0x00 (0000ms, 1100ms total)
T0348 001:181 JLINK_ReadReg(R0)  returns 0x00000000 (0000ms, 1100ms total)
T0348 001:181 JLINK_WriteReg(R0, 0x08000000)  returns 0x00 (0000ms, 1100ms total)
T0348 001:181 JLINK_WriteReg(R1, 0x00000800)  returns 0x00 (0000ms, 1100ms total)
T0348 001:181 JLINK_WriteReg(R2, 0x000000FF)  returns 0x00 (0000ms, 1100ms total)
T0348 001:181 JLINK_WriteReg(R3, 0x00000000)  returns 0x00 (0000ms, 1100ms total)
T0348 001:181 JLINK_WriteReg(R4, 0x00000000)  returns 0x00 (0000ms, 1100ms total)
T0348 001:181 JLINK_WriteReg(R5, 0x00000000)  returns 0x00 (0000ms, 1100ms total)
T0348 001:181 JLINK_WriteReg(R6, 0x00000000)  returns 0x00 (0000ms, 1100ms total)
T0348 001:181 JLINK_WriteReg(R7, 0x00000000)  returns 0x00 (0000ms, 1100ms total)
T0348 001:181 JLINK_WriteReg(R8, 0x00000000)  returns 0x00 (0000ms, 1100ms total)
T0348 001:181 JLINK_WriteReg(R9, 0x20000160)  returns 0x00 (0000ms, 1100ms total)
T0348 001:181 JLINK_WriteReg(R10, 0x00000000)  returns 0x00 (0000ms, 1100ms total)
T0348 001:181 JLINK_WriteReg(R11, 0x00000000)  returns 0x00 (0000ms, 1100ms total)
T0348 001:181 JLINK_WriteReg(R12, 0x00000000)  returns 0x00 (0000ms, 1100ms total)
T0348 001:181 JLINK_WriteReg(R13, 0x20000800)  returns 0x00 (0000ms, 1100ms total)
T0348 001:181 JLINK_WriteReg(R14, 0x20000001)  returns 0x00 (0000ms, 1100ms total)
T0348 001:181 JLINK_WriteReg(R15, 0x20000020)  returns 0x00 (0000ms, 1100ms total)
T0348 001:181 JLINK_WriteReg(XPSR, 0x01000000)  returns 0x00 (0000ms, 1100ms total)
T0348 001:181 JLINK_WriteReg(MSP, 0x20000800)  returns 0x00 (0000ms, 1100ms total)
T0348 001:181 JLINK_WriteReg(PSP, 0x20000800)  returns 0x00 (0000ms, 1100ms total)
T0348 001:181 JLINK_WriteReg(CFBP, 0x00000000)  returns 0x00 (0000ms, 1100ms total)
T0348 001:181 JLINK_SetBPEx(Addr = 0x20000000, Type = 0xFFFFFFF2)  returns 0x00000002 (0000ms, 1100ms total)
T0348 001:181 JLINK_Go() -- CPU_WriteMem(4 bytes @ 0xE0002008) -- CPU_WriteMem(4 bytes @ 0xE000200C) -- CPU_WriteMem(4 bytes @ 0xE0002010) -- CPU_WriteMem(4 bytes @ 0xE0002014) -- CPU_WriteMem(4 bytes @ 0xE0002018) -- CPU_WriteMem(4 bytes @ 0xE000201C) >0x310 JTAG> >0x218 JTAG> >0x218 JTAG> >0x218 JTAG> >0x218 JTAG> >0x218 JTAG> >0x240 JTAG> >0x240 JTAG> (0018ms, 1100ms total)
T0348 001:199 JLINK_IsHalted() >0x198 JTAG> >0x17A8 JTAG> -- CPU_ReadMem(2 bytes @ 0x20000000)  returns TRUE (0008ms, 1118ms total)
T0348 001:207 JLINK_ReadReg(R15)  returns 0x20000000 (0000ms, 1118ms total)
T0348 001:207 JLINK_ClrBPEx(BPHandle = 0x00000002)  returns 0x00 (0000ms, 1118ms total)
T0348 001:207 JLINK_ReadReg(R0)  returns 0x00000001 (0000ms, 1118ms total)
T0348 001:207 JLINK_WriteReg(R0, 0x08000000)  returns 0x00 (0000ms, 1118ms total)
T0348 001:207 JLINK_WriteReg(R1, 0x00000800)  returns 0x00 (0000ms, 1118ms total)
T0348 001:207 JLINK_WriteReg(R2, 0x000000FF)  returns 0x00 (0000ms, 1118ms total)
T0348 001:207 JLINK_WriteReg(R3, 0x00000000)  returns 0x00 (0000ms, 1118ms total)
T0348 001:207 JLINK_WriteReg(R4, 0x00000000)  returns 0x00 (0000ms, 1118ms total)
T0348 001:207 JLINK_WriteReg(R5, 0x00000000)  returns 0x00 (0000ms, 1118ms total)
T0348 001:207 JLINK_WriteReg(R6, 0x00000000)  returns 0x00 (0000ms, 1118ms total)
T0348 001:207 JLINK_WriteReg(R7, 0x00000000)  returns 0x00 (0000ms, 1118ms total)
T0348 001:207 JLINK_WriteReg(R8, 0x00000000)  returns 0x00 (0000ms, 1118ms total)
T0348 001:207 JLINK_WriteReg(R9, 0x20000160)  returns 0x00 (0000ms, 1118ms total)
T0348 001:207 JLINK_WriteReg(R10, 0x00000000)  returns 0x00 (0000ms, 1118ms total)
T0348 001:207 JLINK_WriteReg(R11, 0x00000000)  returns 0x00 (0000ms, 1118ms total)
T0348 001:207 JLINK_WriteReg(R12, 0x00000000)  returns 0x00 (0000ms, 1118ms total)
T0348 001:207 JLINK_WriteReg(R13, 0x20000800)  returns 0x00 (0000ms, 1118ms total)
T0348 001:207 JLINK_WriteReg(R14, 0x20000001)  returns 0x00 (0000ms, 1118ms total)
T0348 001:207 JLINK_WriteReg(R15, 0x200000B6)  returns 0x00 (0000ms, 1118ms total)
T0348 001:207 JLINK_WriteReg(XPSR, 0x01000000)  returns 0x00 (0000ms, 1118ms total)
T0348 001:207 JLINK_WriteReg(MSP, 0x20000800)  returns 0x00 (0000ms, 1118ms total)
T0348 001:207 JLINK_WriteReg(PSP, 0x20000800)  returns 0x00 (0000ms, 1118ms total)
T0348 001:207 JLINK_WriteReg(CFBP, 0x00000000)  returns 0x00 (0000ms, 1118ms total)
T0348 001:207 JLINK_SetBPEx(Addr = 0x20000000, Type = 0xFFFFFFF2)  returns 0x00000003 (0000ms, 1118ms total)
T0348 001:207 JLINK_Go() -- CPU_WriteMem(4 bytes @ 0xE0002008) -- CPU_WriteMem(4 bytes @ 0xE000200C) -- CPU_WriteMem(4 bytes @ 0xE0002010) -- CPU_WriteMem(4 bytes @ 0xE0002014) -- CPU_WriteMem(4 bytes @ 0xE0002018) -- CPU_WriteMem(4 bytes @ 0xE000201C) >0x310 JTAG> >0x218 JTAG> >0x218 JTAG> >0x218 JTAG> >0x240 JTAG> >0x240 JTAG> (0016ms, 1118ms total)
T0348 001:223 JLINK_IsHalted() >0x198 JTAG>  returns FALSE (0001ms, 1134ms total)
T0348 001:274 JLINK_IsHalted() >0x198 JTAG> >0x17A8 JTAG> -- CPU_ReadMem(2 bytes @ 0x20000000)  returns TRUE (0008ms, 1134ms total)
T0348 001:282 JLINK_ReadReg(R15)  returns 0x20000000 (0000ms, 1134ms total)
T0348 001:282 JLINK_ClrBPEx(BPHandle = 0x00000003)  returns 0x00 (0000ms, 1134ms total)
T0348 001:282 JLINK_ReadReg(R0)  returns 0x00000000 (0000ms, 1134ms total)
T0348 001:282 JLINK_WriteReg(R0, 0x08000800)  returns 0x00 (0000ms, 1134ms total)
T0348 001:282 JLINK_WriteReg(R1, 0x00000800)  returns 0x00 (0000ms, 1134ms total)
T0348 001:282 JLINK_WriteReg(R2, 0x000000FF)  returns 0x00 (0000ms, 1134ms total)
T0348 001:282 JLINK_WriteReg(R3, 0x00000000)  returns 0x00 (0000ms, 1134ms total)
T0348 001:282 JLINK_WriteReg(R4, 0x00000000)  returns 0x00 (0000ms, 1134ms total)
T0348 001:282 JLINK_WriteReg(R5, 0x00000000)  returns 0x00 (0000ms, 1134ms total)
T0348 001:282 JLINK_WriteReg(R6, 0x00000000)  returns 0x00 (0000ms, 1134ms total)
T0348 001:282 JLINK_WriteReg(R7, 0x00000000)  returns 0x00 (0000ms, 1134ms total)
T0348 001:282 JLINK_WriteReg(R8, 0x00000000)  returns 0x00 (0000ms, 1134ms total)
T0348 001:282 JLINK_WriteReg(R9, 0x20000160)  returns 0x00 (0000ms, 1134ms total)
T0348 001:282 JLINK_WriteReg(R10, 0x00000000)  returns 0x00 (0000ms, 1134ms total)
T0348 001:282 JLINK_WriteReg(R11, 0x00000000)  returns 0x00 (0000ms, 1134ms total)
T0348 001:282 JLINK_WriteReg(R12, 0x00000000)  returns 0x00 (0000ms, 1134ms total)
T0348 001:282 JLINK_WriteReg(R13, 0x20000800)  returns 0x00 (0000ms, 1134ms total)
T0348 001:282 JLINK_WriteReg(R14, 0x20000001)  returns 0x00 (0000ms, 1134ms total)
T0348 001:282 JLINK_WriteReg(R15, 0x20000020)  returns 0x00 (0001ms, 1134ms total)
T0348 001:283 JLINK_WriteReg(XPSR, 0x01000000)  returns 0x00 (0000ms, 1135ms total)
T0348 001:283 JLINK_WriteReg(MSP, 0x20000800)  returns 0x00 (0000ms, 1135ms total)
T0348 001:283 JLINK_WriteReg(PSP, 0x20000800)  returns 0x00 (0000ms, 1135ms total)
T0348 001:283 JLINK_WriteReg(CFBP, 0x00000000)  returns 0x00 (0000ms, 1135ms total)
T0348 001:283 JLINK_SetBPEx(Addr = 0x20000000, Type = 0xFFFFFFF2)  returns 0x00000004 (0000ms, 1135ms total)
T0348 001:283 JLINK_Go() -- CPU_WriteMem(4 bytes @ 0xE0002008) -- CPU_WriteMem(4 bytes @ 0xE000200C) -- CPU_WriteMem(4 bytes @ 0xE0002010) -- CPU_WriteMem(4 bytes @ 0xE0002014) -- CPU_WriteMem(4 bytes @ 0xE0002018) -- CPU_WriteMem(4 bytes @ 0xE000201C) >0x310 JTAG> >0x218 JTAG> >0x218 JTAG> >0x218 JTAG> >0x218 JTAG> >0x240 JTAG> >0x240 JTAG> (0017ms, 1135ms total)
T0348 001:300 JLINK_IsHalted() >0x198 JTAG> >0x17A8 JTAG> -- CPU_ReadMem(2 bytes @ 0x20000000)  returns TRUE (0008ms, 1152ms total)
T0348 001:308 JLINK_ReadReg(R15)  returns 0x20000000 (0000ms, 1152ms total)
T0348 001:308 JLINK_ClrBPEx(BPHandle = 0x00000004)  returns 0x00 (0000ms, 1152ms total)
T0348 001:308 JLINK_ReadReg(R0)  returns 0x00000001 (0000ms, 1152ms total)
T0348 001:308 JLINK_WriteReg(R0, 0x08000800)  returns 0x00 (0000ms, 1152ms total)
T0348 001:308 JLINK_WriteReg(R1, 0x00000800)  returns 0x00 (0000ms, 1152ms total)
T0348 001:308 JLINK_WriteReg(R2, 0x000000FF)  returns 0x00 (0000ms, 1152ms total)
T0348 001:308 JLINK_WriteReg(R3, 0x00000000)  returns 0x00 (0000ms, 1152ms total)
T0348 001:308 JLINK_WriteReg(R4, 0x00000000)  returns 0x00 (0000ms, 1152ms total)
T0348 001:308 JLINK_WriteReg(R5, 0x00000000)  returns 0x00 (0001ms, 1152ms total)
T0348 001:309 JLINK_WriteReg(R6, 0x00000000)  returns 0x00 (0000ms, 1153ms total)
T0348 001:309 JLINK_WriteReg(R7, 0x00000000)  returns 0x00 (0000ms, 1153ms total)
T0348 001:309 JLINK_WriteReg(R8, 0x00000000)  returns 0x00 (0000ms, 1153ms total)
T0348 001:309 JLINK_WriteReg(R9, 0x20000160)  returns 0x00 (0000ms, 1153ms total)
T0348 001:309 JLINK_WriteReg(R10, 0x00000000)  returns 0x00 (0000ms, 1153ms total)
T0348 001:309 JLINK_WriteReg(R11, 0x00000000)  returns 0x00 (0000ms, 1153ms total)
T0348 001:309 JLINK_WriteReg(R12, 0x00000000)  returns 0x00 (0000ms, 1153ms total)
T0348 001:309 JLINK_WriteReg(R13, 0x20000800)  returns 0x00 (0000ms, 1153ms total)
T0348 001:309 JLINK_WriteReg(R14, 0x20000001)  returns 0x00 (0000ms, 1153ms total)
T0348 001:309 JLINK_WriteReg(R15, 0x200000B6)  returns 0x00 (0000ms, 1153ms total)
T0348 001:309 JLINK_WriteReg(XPSR, 0x01000000)  returns 0x00 (0000ms, 1153ms total)
T0348 001:309 JLINK_WriteReg(MSP, 0x20000800)  returns 0x00 (0000ms, 1153ms total)
T0348 001:309 JLINK_WriteReg(PSP, 0x20000800)  returns 0x00 (0000ms, 1153ms total)
T0348 001:309 JLINK_WriteReg(CFBP, 0x00000000)  returns 0x00 (0000ms, 1153ms total)
T0348 001:309 JLINK_SetBPEx(Addr = 0x20000000, Type = 0xFFFFFFF2)  returns 0x00000005 (0000ms, 1153ms total)
T0348 001:309 JLINK_Go() -- CPU_WriteMem(4 bytes @ 0xE0002008) -- CPU_WriteMem(4 bytes @ 0xE000200C) -- CPU_WriteMem(4 bytes @ 0xE0002010) -- CPU_WriteMem(4 bytes @ 0xE0002014) -- CPU_WriteMem(4 bytes @ 0xE0002018) -- CPU_WriteMem(4 bytes @ 0xE000201C) >0x310 JTAG> >0x218 JTAG> >0x218 JTAG> >0x218 JTAG> >0x240 JTAG> >0x240 JTAG> (0014ms, 1153ms total)
T0348 001:323 JLINK_IsHalted() >0x198 JTAG>  returns FALSE (0002ms, 1167ms total)
T0348 001:376 JLINK_IsHalted() >0x198 JTAG> >0x17A8 JTAG> -- CPU_ReadMem(2 bytes @ 0x20000000)  returns TRUE (0012ms, 1167ms total)
T0348 001:388 JLINK_ReadReg(R15)  returns 0x20000000 (0000ms, 1167ms total)
T0348 001:388 JLINK_ClrBPEx(BPHandle = 0x00000005)  returns 0x00 (0000ms, 1167ms total)
T0348 001:388 JLINK_ReadReg(R0)  returns 0x00000000 (0000ms, 1167ms total)
T0348 001:388 JLINK_WriteReg(R0, 0x08001000)  returns 0x00 (0000ms, 1167ms total)
T0348 001:388 JLINK_WriteReg(R1, 0x00000800)  returns 0x00 (0000ms, 1167ms total)
T0348 001:388 JLINK_WriteReg(R2, 0x000000FF)  returns 0x00 (0000ms, 1167ms total)
T0348 001:388 JLINK_WriteReg(R3, 0x00000000)  returns 0x00 (0000ms, 1167ms total)
T0348 001:388 JLINK_WriteReg(R4, 0x00000000)  returns 0x00 (0001ms, 1167ms total)
T0348 001:389 JLINK_WriteReg(R5, 0x00000000)  returns 0x00 (0000ms, 1168ms total)
T0348 001:389 JLINK_WriteReg(R6, 0x00000000)  returns 0x00 (0000ms, 1168ms total)
T0348 001:389 JLINK_WriteReg(R7, 0x00000000)  returns 0x00 (0000ms, 1168ms total)
T0348 001:389 JLINK_WriteReg(R8, 0x00000000)  returns 0x00 (0000ms, 1168ms total)
T0348 001:389 JLINK_WriteReg(R9, 0x20000160)  returns 0x00 (0000ms, 1168ms total)
T0348 001:389 JLINK_WriteReg(R10, 0x00000000)  returns 0x00 (0000ms, 1168ms total)
T0348 001:389 JLINK_WriteReg(R11, 0x00000000)  returns 0x00 (0000ms, 1168ms total)
T0348 001:389 JLINK_WriteReg(R12, 0x00000000)  returns 0x00 (0000ms, 1168ms total)
T0348 001:389 JLINK_WriteReg(R13, 0x20000800)  returns 0x00 (0000ms, 1168ms total)
T0348 001:389 JLINK_WriteReg(R14, 0x20000001)  returns 0x00 (0000ms, 1168ms total)
T0348 001:389 JLINK_WriteReg(R15, 0x20000020)  returns 0x00 (0000ms, 1168ms total)
T0348 001:389 JLINK_WriteReg(XPSR, 0x01000000)  returns 0x00 (0000ms, 1168ms total)
T0348 001:389 JLINK_WriteReg(MSP, 0x20000800)  returns 0x00 (0000ms, 1168ms total)
T0348 001:389 JLINK_WriteReg(PSP, 0x20000800)  returns 0x00 (0000ms, 1168ms total)
T0348 001:389 JLINK_WriteReg(CFBP, 0x00000000)  returns 0x00 (0000ms, 1168ms total)
T0348 001:389 JLINK_SetBPEx(Addr = 0x20000000, Type = 0xFFFFFFF2)  returns 0x00000006 (0000ms, 1168ms total)
T0348 001:389 JLINK_Go() -- CPU_WriteMem(4 bytes @ 0xE0002008) -- CPU_WriteMem(4 bytes @ 0xE000200C) -- CPU_WriteMem(4 bytes @ 0xE0002010) -- CPU_WriteMem(4 bytes @ 0xE0002014) -- CPU_WriteMem(4 bytes @ 0xE0002018) -- CPU_WriteMem(4 bytes @ 0xE000201C) >0x310 JTAG> >0x218 JTAG> >0x218 JTAG> >0x218 JTAG> >0x218 JTAG> >0x240 JTAG> >0x240 JTAG> (0015ms, 1168ms total)
T0348 001:404 JLINK_IsHalted() >0x198 JTAG> >0x17A8 JTAG> -- CPU_ReadMem(2 bytes @ 0x20000000)  returns TRUE (0008ms, 1183ms total)
T0348 001:412 JLINK_ReadReg(R15)  returns 0x20000000 (0000ms, 1183ms total)
T0348 001:412 JLINK_ClrBPEx(BPHandle = 0x00000006)  returns 0x00 (0000ms, 1183ms total)
T0348 001:412 JLINK_ReadReg(R0)  returns 0x00000001 (0000ms, 1183ms total)
T0348 001:412 JLINK_WriteReg(R0, 0x08001000)  returns 0x00 (0000ms, 1183ms total)
T0348 001:412 JLINK_WriteReg(R1, 0x00000800)  returns 0x00 (0000ms, 1183ms total)
T0348 001:412 JLINK_WriteReg(R2, 0x000000FF)  returns 0x00 (0000ms, 1183ms total)
T0348 001:412 JLINK_WriteReg(R3, 0x00000000)  returns 0x00 (0000ms, 1183ms total)
T0348 001:412 JLINK_WriteReg(R4, 0x00000000)  returns 0x00 (0000ms, 1183ms total)
T0348 001:412 JLINK_WriteReg(R5, 0x00000000)  returns 0x00 (0000ms, 1183ms total)
T0348 001:412 JLINK_WriteReg(R6, 0x00000000)  returns 0x00 (0000ms, 1183ms total)
T0348 001:412 JLINK_WriteReg(R7, 0x00000000)  returns 0x00 (0000ms, 1183ms total)
T0348 001:412 JLINK_WriteReg(R8, 0x00000000)  returns 0x00 (0000ms, 1183ms total)
T0348 001:412 JLINK_WriteReg(R9, 0x20000160)  returns 0x00 (0000ms, 1183ms total)
T0348 001:412 JLINK_WriteReg(R10, 0x00000000)  returns 0x00 (0000ms, 1183ms total)
T0348 001:412 JLINK_WriteReg(R11, 0x00000000)  returns 0x00 (0000ms, 1183ms total)
T0348 001:412 JLINK_WriteReg(R12, 0x00000000)  returns 0x00 (0000ms, 1183ms total)
T0348 001:412 JLINK_WriteReg(R13, 0x20000800)  returns 0x00 (0000ms, 1183ms total)
T0348 001:412 JLINK_WriteReg(R14, 0x20000001)  returns 0x00 (0000ms, 1183ms total)
T0348 001:412 JLINK_WriteReg(R15, 0x200000B6)  returns 0x00 (0000ms, 1183ms total)
T0348 001:412 JLINK_WriteReg(XPSR, 0x01000000)  returns 0x00 (0000ms, 1183ms total)
T0348 001:412 JLINK_WriteReg(MSP, 0x20000800)  returns 0x00 (0000ms, 1183ms total)
T0348 001:412 JLINK_WriteReg(PSP, 0x20000800)  returns 0x00 (0000ms, 1183ms total)
T0348 001:412 JLINK_WriteReg(CFBP, 0x00000000)  returns 0x00 (0000ms, 1183ms total)
T0348 001:412 JLINK_SetBPEx(Addr = 0x20000000, Type = 0xFFFFFFF2)  returns 0x00000007 (0001ms, 1183ms total)
T0348 001:413 JLINK_Go() -- CPU_WriteMem(4 bytes @ 0xE0002008) -- CPU_WriteMem(4 bytes @ 0xE000200C) -- CPU_WriteMem(4 bytes @ 0xE0002010) -- CPU_WriteMem(4 bytes @ 0xE0002014) -- CPU_WriteMem(4 bytes @ 0xE0002018) -- CPU_WriteMem(4 bytes @ 0xE000201C) >0x310 JTAG> >0x218 JTAG> >0x218 JTAG> >0x218 JTAG> >0x240 JTAG> >0x240 JTAG> (0017ms, 1184ms total)
T0348 001:430 JLINK_IsHalted() >0x198 JTAG>  returns FALSE (0001ms, 1201ms total)
T0348 001:482 JLINK_IsHalted() >0x198 JTAG> >0x17A8 JTAG> -- CPU_ReadMem(2 bytes @ 0x20000000)  returns TRUE (0010ms, 1201ms total)
T0348 001:492 JLINK_ReadReg(R15)  returns 0x20000000 (0000ms, 1201ms total)
T0348 001:492 JLINK_ClrBPEx(BPHandle = 0x00000007)  returns 0x00 (0000ms, 1201ms total)
T0348 001:492 JLINK_ReadReg(R0)  returns 0x00000000 (0000ms, 1201ms total)
T0348 001:492 JLINK_WriteReg(R0, 0x08001800)  returns 0x00 (0000ms, 1201ms total)
T0348 001:492 JLINK_WriteReg(R1, 0x00000800)  returns 0x00 (0000ms, 1201ms total)
T0348 001:492 JLINK_WriteReg(R2, 0x000000FF)  returns 0x00 (0000ms, 1201ms total)
T0348 001:492 JLINK_WriteReg(R3, 0x00000000)  returns 0x00 (0000ms, 1201ms total)
T0348 001:492 JLINK_WriteReg(R4, 0x00000000)  returns 0x00 (0000ms, 1201ms total)
T0348 001:492 JLINK_WriteReg(R5, 0x00000000)  returns 0x00 (0000ms, 1201ms total)
T0348 001:492 JLINK_WriteReg(R6, 0x00000000)  returns 0x00 (0000ms, 1201ms total)
T0348 001:492 JLINK_WriteReg(R7, 0x00000000)  returns 0x00 (0000ms, 1201ms total)
T0348 001:492 JLINK_WriteReg(R8, 0x00000000)  returns 0x00 (0000ms, 1201ms total)
T0348 001:492 JLINK_WriteReg(R9, 0x20000160)  returns 0x00 (0000ms, 1201ms total)
T0348 001:492 JLINK_WriteReg(R10, 0x00000000)  returns 0x00 (0000ms, 1201ms total)
T0348 001:492 JLINK_WriteReg(R11, 0x00000000)  returns 0x00 (0000ms, 1201ms total)
T0348 001:492 JLINK_WriteReg(R12, 0x00000000)  returns 0x00 (0000ms, 1201ms total)
T0348 001:492 JLINK_WriteReg(R13, 0x20000800)  returns 0x00 (0000ms, 1201ms total)
T0348 001:492 JLINK_WriteReg(R14, 0x20000001)  returns 0x00 (0000ms, 1201ms total)
T0348 001:492 JLINK_WriteReg(R15, 0x20000020)  returns 0x00 (0000ms, 1201ms total)
T0348 001:492 JLINK_WriteReg(XPSR, 0x01000000)  returns 0x00 (0000ms, 1201ms total)
T0348 001:492 JLINK_WriteReg(MSP, 0x20000800)  returns 0x00 (0000ms, 1201ms total)
T0348 001:492 JLINK_WriteReg(PSP, 0x20000800)  returns 0x00 (0000ms, 1201ms total)
T0348 001:492 JLINK_WriteReg(CFBP, 0x00000000)  returns 0x00 (0000ms, 1201ms total)
T0348 001:492 JLINK_SetBPEx(Addr = 0x20000000, Type = 0xFFFFFFF2)  returns 0x00000008 (0000ms, 1201ms total)
T0348 001:492 JLINK_Go() -- CPU_WriteMem(4 bytes @ 0xE0002008) -- CPU_WriteMem(4 bytes @ 0xE000200C) -- CPU_WriteMem(4 bytes @ 0xE0002010) -- CPU_WriteMem(4 bytes @ 0xE0002014) -- CPU_WriteMem(4 bytes @ 0xE0002018) -- CPU_WriteMem(4 bytes @ 0xE000201C) >0x310 JTAG> >0x218 JTAG> >0x218 JTAG> >0x218 JTAG> >0x218 JTAG> >0x240 JTAG> >0x240 JTAG> (0016ms, 1201ms total)
T0348 001:508 JLINK_IsHalted() >0x198 JTAG> >0x17A8 JTAG> -- CPU_ReadMem(2 bytes @ 0x20000000)  returns TRUE (0011ms, 1217ms total)
T0348 001:519 JLINK_ReadReg(R15)  returns 0x20000000 (0000ms, 1217ms total)
T0348 001:519 JLINK_ClrBPEx(BPHandle = 0x00000008)  returns 0x00 (0000ms, 1217ms total)
T0348 001:519 JLINK_ReadReg(R0)  returns 0x00000001 (0000ms, 1217ms total)
T0348 001:519 JLINK_WriteReg(R0, 0x08001800)  returns 0x00 (0000ms, 1217ms total)
T0348 001:519 JLINK_WriteReg(R1, 0x00000800)  returns 0x00 (0000ms, 1217ms total)
T0348 001:519 JLINK_WriteReg(R2, 0x000000FF)  returns 0x00 (0000ms, 1217ms total)
T0348 001:519 JLINK_WriteReg(R3, 0x00000000)  returns 0x00 (0000ms, 1217ms total)
T0348 001:519 JLINK_WriteReg(R4, 0x00000000)  returns 0x00 (0000ms, 1217ms total)
T0348 001:519 JLINK_WriteReg(R5, 0x00000000)  returns 0x00 (0000ms, 1217ms total)
T0348 001:519 JLINK_WriteReg(R6, 0x00000000)  returns 0x00 (0000ms, 1217ms total)
T0348 001:519 JLINK_WriteReg(R7, 0x00000000)  returns 0x00 (0000ms, 1217ms total)
T0348 001:519 JLINK_WriteReg(R8, 0x00000000)  returns 0x00 (0000ms, 1217ms total)
T0348 001:519 JLINK_WriteReg(R9, 0x20000160)  returns 0x00 (0000ms, 1217ms total)
T0348 001:519 JLINK_WriteReg(R10, 0x00000000)  returns 0x00 (0000ms, 1217ms total)
T0348 001:519 JLINK_WriteReg(R11, 0x00000000)  returns 0x00 (0000ms, 1217ms total)
T0348 001:519 JLINK_WriteReg(R12, 0x00000000)  returns 0x00 (0000ms, 1217ms total)
T0348 001:519 JLINK_WriteReg(R13, 0x20000800)  returns 0x00 (0000ms, 1217ms total)
T0348 001:519 JLINK_WriteReg(R14, 0x20000001)  returns 0x00 (0000ms, 1217ms total)
T0348 001:519 JLINK_WriteReg(R15, 0x200000B6)  returns 0x00 (0000ms, 1217ms total)
T0348 001:519 JLINK_WriteReg(XPSR, 0x01000000)  returns 0x00 (0000ms, 1217ms total)
T0348 001:519 JLINK_WriteReg(MSP, 0x20000800)  returns 0x00 (0000ms, 1217ms total)
T0348 001:519 JLINK_WriteReg(PSP, 0x20000800)  returns 0x00 (0000ms, 1217ms total)
T0348 001:519 JLINK_WriteReg(CFBP, 0x00000000)  returns 0x00 (0000ms, 1217ms total)
T0348 001:519 JLINK_SetBPEx(Addr = 0x20000000, Type = 0xFFFFFFF2)  returns 0x00000009 (0000ms, 1217ms total)
T0348 001:519 JLINK_Go() -- CPU_WriteMem(4 bytes @ 0xE0002008) -- CPU_WriteMem(4 bytes @ 0xE000200C) -- CPU_WriteMem(4 bytes @ 0xE0002010) -- CPU_WriteMem(4 bytes @ 0xE0002014) -- CPU_WriteMem(4 bytes @ 0xE0002018) -- CPU_WriteMem(4 bytes @ 0xE000201C) >0x310 JTAG> >0x218 JTAG> >0x218 JTAG> >0x218 JTAG> >0x240 JTAG> >0x240 JTAG> (0013ms, 1217ms total)
T0348 001:532 JLINK_IsHalted() >0x198 JTAG>  returns FALSE (0001ms, 1230ms total)
T0348 001:584 JLINK_IsHalted() >0x198 JTAG> >0x17A8 JTAG> -- CPU_ReadMem(2 bytes @ 0x20000000)  returns TRUE (0010ms, 1230ms total)
T0348 001:594 JLINK_ReadReg(R15)  returns 0x20000000 (0000ms, 1230ms total)
T0348 001:594 JLINK_ClrBPEx(BPHandle = 0x00000009)  returns 0x00 (0000ms, 1230ms total)
T0348 001:594 JLINK_ReadReg(R0)  returns 0x00000000 (0000ms, 1230ms total)
T0348 001:594 JLINK_WriteReg(R0, 0x08002000)  returns 0x00 (0001ms, 1230ms total)
T0348 001:595 JLINK_WriteReg(R1, 0x00000800)  returns 0x00 (0000ms, 1231ms total)
T0348 001:595 JLINK_WriteReg(R2, 0x000000FF)  returns 0x00 (0000ms, 1231ms total)
T0348 001:595 JLINK_WriteReg(R3, 0x00000000)  returns 0x00 (0000ms, 1231ms total)
T0348 001:595 JLINK_WriteReg(R4, 0x00000000)  returns 0x00 (0000ms, 1231ms total)
T0348 001:595 JLINK_WriteReg(R5, 0x00000000)  returns 0x00 (0000ms, 1231ms total)
T0348 001:595 JLINK_WriteReg(R6, 0x00000000)  returns 0x00 (0000ms, 1231ms total)
T0348 001:595 JLINK_WriteReg(R7, 0x00000000)  returns 0x00 (0000ms, 1231ms total)
T0348 001:595 JLINK_WriteReg(R8, 0x00000000)  returns 0x00 (0000ms, 1231ms total)
T0348 001:595 JLINK_WriteReg(R9, 0x20000160)  returns 0x00 (0000ms, 1231ms total)
T0348 001:595 JLINK_WriteReg(R10, 0x00000000)  returns 0x00 (0000ms, 1231ms total)
T0348 001:595 JLINK_WriteReg(R11, 0x00000000)  returns 0x00 (0000ms, 1231ms total)
T0348 001:595 JLINK_WriteReg(R12, 0x00000000)  returns 0x00 (0000ms, 1231ms total)
T0348 001:595 JLINK_WriteReg(R13, 0x20000800)  returns 0x00 (0000ms, 1231ms total)
T0348 001:595 JLINK_WriteReg(R14, 0x20000001)  returns 0x00 (0000ms, 1231ms total)
T0348 001:595 JLINK_WriteReg(R15, 0x20000020)  returns 0x00 (0000ms, 1231ms total)
T0348 001:595 JLINK_WriteReg(XPSR, 0x01000000)  returns 0x00 (0000ms, 1231ms total)
T0348 001:595 JLINK_WriteReg(MSP, 0x20000800)  returns 0x00 (0000ms, 1231ms total)
T0348 001:595 JLINK_WriteReg(PSP, 0x20000800)  returns 0x00 (0000ms, 1231ms total)
T0348 001:595 JLINK_WriteReg(CFBP, 0x00000000)  returns 0x00 (0000ms, 1231ms total)
T0348 001:595 JLINK_SetBPEx(Addr = 0x20000000, Type = 0xFFFFFFF2)  returns 0x0000000A (0000ms, 1231ms total)
T0348 001:595 JLINK_Go() -- CPU_WriteMem(4 bytes @ 0xE0002008) -- CPU_WriteMem(4 bytes @ 0xE000200C) -- CPU_WriteMem(4 bytes @ 0xE0002010) -- CPU_WriteMem(4 bytes @ 0xE0002014) -- CPU_WriteMem(4 bytes @ 0xE0002018) -- CPU_WriteMem(4 bytes @ 0xE000201C) >0x310 JTAG> >0x218 JTAG> >0x218 JTAG> >0x218 JTAG> >0x218 JTAG> >0x240 JTAG> >0x240 JTAG> (0016ms, 1231ms total)
T0348 001:611 JLINK_IsHalted() >0x198 JTAG> >0x17A8 JTAG> -- CPU_ReadMem(2 bytes @ 0x20000000)  returns TRUE (0009ms, 1247ms total)
T0348 001:620 JLINK_ReadReg(R15)  returns 0x20000000 (0000ms, 1247ms total)
T0348 001:620 JLINK_ClrBPEx(BPHandle = 0x0000000A)  returns 0x00 (0000ms, 1247ms total)
T0348 001:620 JLINK_ReadReg(R0)  returns 0x00000001 (0000ms, 1247ms total)
T0348 001:620 JLINK_WriteReg(R0, 0x08002000)  returns 0x00 (0000ms, 1247ms total)
T0348 001:620 JLINK_WriteReg(R1, 0x00000800)  returns 0x00 (0000ms, 1247ms total)
T0348 001:620 JLINK_WriteReg(R2, 0x000000FF)  returns 0x00 (0000ms, 1247ms total)
T0348 001:620 JLINK_WriteReg(R3, 0x00000000)  returns 0x00 (0000ms, 1247ms total)
T0348 001:620 JLINK_WriteReg(R4, 0x00000000)  returns 0x00 (0000ms, 1247ms total)
T0348 001:620 JLINK_WriteReg(R5, 0x00000000)  returns 0x00 (0000ms, 1247ms total)
T0348 001:620 JLINK_WriteReg(R6, 0x00000000)  returns 0x00 (0000ms, 1247ms total)
T0348 001:620 JLINK_WriteReg(R7, 0x00000000)  returns 0x00 (0000ms, 1247ms total)
T0348 001:620 JLINK_WriteReg(R8, 0x00000000)  returns 0x00 (0000ms, 1247ms total)
T0348 001:620 JLINK_WriteReg(R9, 0x20000160)  returns 0x00 (0001ms, 1247ms total)
T0348 001:621 JLINK_WriteReg(R10, 0x00000000)  returns 0x00 (0000ms, 1248ms total)
T0348 001:621 JLINK_WriteReg(R11, 0x00000000)  returns 0x00 (0000ms, 1248ms total)
T0348 001:621 JLINK_WriteReg(R12, 0x00000000)  returns 0x00 (0000ms, 1248ms total)
T0348 001:621 JLINK_WriteReg(R13, 0x20000800)  returns 0x00 (0000ms, 1248ms total)
T0348 001:621 JLINK_WriteReg(R14, 0x20000001)  returns 0x00 (0000ms, 1248ms total)
T0348 001:621 JLINK_WriteReg(R15, 0x200000B6)  returns 0x00 (0000ms, 1248ms total)
T0348 001:621 JLINK_WriteReg(XPSR, 0x01000000)  returns 0x00 (0000ms, 1248ms total)
T0348 001:621 JLINK_WriteReg(MSP, 0x20000800)  returns 0x00 (0000ms, 1248ms total)
T0348 001:621 JLINK_WriteReg(PSP, 0x20000800)  returns 0x00 (0000ms, 1248ms total)
T0348 001:621 JLINK_WriteReg(CFBP, 0x00000000)  returns 0x00 (0000ms, 1248ms total)
T0348 001:621 JLINK_SetBPEx(Addr = 0x20000000, Type = 0xFFFFFFF2)  returns 0x0000000B (0000ms, 1248ms total)
T0348 001:621 JLINK_Go() -- CPU_WriteMem(4 bytes @ 0xE0002008) -- CPU_WriteMem(4 bytes @ 0xE000200C) -- CPU_WriteMem(4 bytes @ 0xE0002010) -- CPU_WriteMem(4 bytes @ 0xE0002014) -- CPU_WriteMem(4 bytes @ 0xE0002018) -- CPU_WriteMem(4 bytes @ 0xE000201C) >0x310 JTAG> >0x218 JTAG> >0x218 JTAG> >0x218 JTAG> >0x240 JTAG> >0x240 JTAG> (0024ms, 1248ms total)
T0348 001:645 JLINK_IsHalted() >0x198 JTAG>  returns FALSE (0002ms, 1272ms total)
T0348 001:697 JLINK_IsHalted() >0x198 JTAG> >0x17A8 JTAG> -- CPU_ReadMem(2 bytes @ 0x20000000)  returns TRUE (0008ms, 1272ms total)
T0348 001:705 JLINK_ReadReg(R15)  returns 0x20000000 (0000ms, 1272ms total)
T0348 001:705 JLINK_ClrBPEx(BPHandle = 0x0000000B)  returns 0x00 (0000ms, 1272ms total)
T0348 001:705 JLINK_ReadReg(R0)  returns 0x00000000 (0000ms, 1272ms total)
T0348 001:706 JLINK_WriteReg(R0, 0x08002800)  returns 0x00 (0000ms, 1272ms total)
T0348 001:706 JLINK_WriteReg(R1, 0x00000800)  returns 0x00 (0000ms, 1272ms total)
T0348 001:706 JLINK_WriteReg(R2, 0x000000FF)  returns 0x00 (0000ms, 1272ms total)
T0348 001:706 JLINK_WriteReg(R3, 0x00000000)  returns 0x00 (0000ms, 1272ms total)
T0348 001:706 JLINK_WriteReg(R4, 0x00000000)  returns 0x00 (0000ms, 1272ms total)
T0348 001:706 JLINK_WriteReg(R5, 0x00000000)  returns 0x00 (0000ms, 1272ms total)
T0348 001:706 JLINK_WriteReg(R6, 0x00000000)  returns 0x00 (0000ms, 1272ms total)
T0348 001:706 JLINK_WriteReg(R7, 0x00000000)  returns 0x00 (0000ms, 1272ms total)
T0348 001:706 JLINK_WriteReg(R8, 0x00000000)  returns 0x00 (0000ms, 1272ms total)
T0348 001:706 JLINK_WriteReg(R9, 0x20000160)  returns 0x00 (0000ms, 1272ms total)
T0348 001:706 JLINK_WriteReg(R10, 0x00000000)  returns 0x00 (0000ms, 1272ms total)
T0348 001:706 JLINK_WriteReg(R11, 0x00000000)  returns 0x00 (0000ms, 1272ms total)
T0348 001:706 JLINK_WriteReg(R12, 0x00000000)  returns 0x00 (0000ms, 1272ms total)
T0348 001:706 JLINK_WriteReg(R13, 0x20000800)  returns 0x00 (0000ms, 1272ms total)
T0348 001:706 JLINK_WriteReg(R14, 0x20000001)  returns 0x00 (0000ms, 1272ms total)
T0348 001:706 JLINK_WriteReg(R15, 0x20000020)  returns 0x00 (0000ms, 1272ms total)
T0348 001:706 JLINK_WriteReg(XPSR, 0x01000000)  returns 0x00 (0000ms, 1272ms total)
T0348 001:706 JLINK_WriteReg(MSP, 0x20000800)  returns 0x00 (0000ms, 1272ms total)
T0348 001:706 JLINK_WriteReg(PSP, 0x20000800)  returns 0x00 (0000ms, 1272ms total)
T0348 001:706 JLINK_WriteReg(CFBP, 0x00000000)  returns 0x00 (0000ms, 1272ms total)
T0348 001:706 JLINK_SetBPEx(Addr = 0x20000000, Type = 0xFFFFFFF2)  returns 0x0000000C (0000ms, 1272ms total)
T0348 001:706 JLINK_Go() -- CPU_WriteMem(4 bytes @ 0xE0002008) -- CPU_WriteMem(4 bytes @ 0xE000200C) -- CPU_WriteMem(4 bytes @ 0xE0002010) -- CPU_WriteMem(4 bytes @ 0xE0002014) -- CPU_WriteMem(4 bytes @ 0xE0002018) -- CPU_WriteMem(4 bytes @ 0xE000201C) >0x310 JTAG> >0x218 JTAG> >0x218 JTAG> >0x218 JTAG> >0x218 JTAG> >0x240 JTAG> >0x240 JTAG> (0019ms, 1272ms total)
T0348 001:725 JLINK_IsHalted() >0x198 JTAG> >0x17A8 JTAG> -- CPU_ReadMem(2 bytes @ 0x20000000)  returns TRUE (0008ms, 1291ms total)
T0348 001:733 JLINK_ReadReg(R15)  returns 0x20000000 (0000ms, 1291ms total)
T0348 001:733 JLINK_ClrBPEx(BPHandle = 0x0000000C)  returns 0x00 (0000ms, 1291ms total)
T0348 001:733 JLINK_ReadReg(R0)  returns 0x00000001 (0000ms, 1291ms total)
T0348 001:733 JLINK_WriteReg(R0, 0x08002800)  returns 0x00 (0000ms, 1291ms total)
T0348 001:733 JLINK_WriteReg(R1, 0x00000800)  returns 0x00 (0000ms, 1291ms total)
T0348 001:733 JLINK_WriteReg(R2, 0x000000FF)  returns 0x00 (0000ms, 1291ms total)
T0348 001:733 JLINK_WriteReg(R3, 0x00000000)  returns 0x00 (0000ms, 1291ms total)
T0348 001:733 JLINK_WriteReg(R4, 0x00000000)  returns 0x00 (0000ms, 1291ms total)
T0348 001:733 JLINK_WriteReg(R5, 0x00000000)  returns 0x00 (0000ms, 1291ms total)
T0348 001:733 JLINK_WriteReg(R6, 0x00000000)  returns 0x00 (0000ms, 1291ms total)
T0348 001:733 JLINK_WriteReg(R7, 0x00000000)  returns 0x00 (0000ms, 1291ms total)
T0348 001:733 JLINK_WriteReg(R8, 0x00000000)  returns 0x00 (0000ms, 1291ms total)
T0348 001:733 JLINK_WriteReg(R9, 0x20000160)  returns 0x00 (0000ms, 1291ms total)
T0348 001:733 JLINK_WriteReg(R10, 0x00000000)  returns 0x00 (0000ms, 1291ms total)
T0348 001:733 JLINK_WriteReg(R11, 0x00000000)  returns 0x00 (0000ms, 1291ms total)
T0348 001:733 JLINK_WriteReg(R12, 0x00000000)  returns 0x00 (0000ms, 1291ms total)
T0348 001:733 JLINK_WriteReg(R13, 0x20000800)  returns 0x00 (0000ms, 1291ms total)
T0348 001:733 JLINK_WriteReg(R14, 0x20000001)  returns 0x00 (0000ms, 1291ms total)
T0348 001:733 JLINK_WriteReg(R15, 0x200000B6)  returns 0x00 (0000ms, 1291ms total)
T0348 001:733 JLINK_WriteReg(XPSR, 0x01000000)  returns 0x00 (0000ms, 1291ms total)
T0348 001:733 JLINK_WriteReg(MSP, 0x20000800)  returns 0x00 (0000ms, 1291ms total)
T0348 001:733 JLINK_WriteReg(PSP, 0x20000800)  returns 0x00 (0000ms, 1291ms total)
T0348 001:733 JLINK_WriteReg(CFBP, 0x00000000)  returns 0x00 (0000ms, 1291ms total)
T0348 001:733 JLINK_SetBPEx(Addr = 0x20000000, Type = 0xFFFFFFF2)  returns 0x0000000D (0000ms, 1291ms total)
T0348 001:733 JLINK_Go() -- CPU_WriteMem(4 bytes @ 0xE0002008) -- CPU_WriteMem(4 bytes @ 0xE000200C) -- CPU_WriteMem(4 bytes @ 0xE0002010) -- CPU_WriteMem(4 bytes @ 0xE0002014) -- CPU_WriteMem(4 bytes @ 0xE0002018) -- CPU_WriteMem(4 bytes @ 0xE000201C) >0x310 JTAG> >0x218 JTAG> >0x218 JTAG> >0x218 JTAG> >0x240 JTAG> >0x240 JTAG> (0015ms, 1291ms total)
T0348 001:748 JLINK_IsHalted() >0x198 JTAG>  returns FALSE (0004ms, 1306ms total)
T0348 001:803 JLINK_IsHalted() >0x198 JTAG> >0x17A8 JTAG> -- CPU_ReadMem(2 bytes @ 0x20000000)  returns TRUE (0008ms, 1306ms total)
T0348 001:811 JLINK_ReadReg(R15)  returns 0x20000000 (0000ms, 1306ms total)
T0348 001:811 JLINK_ClrBPEx(BPHandle = 0x0000000D)  returns 0x00 (0000ms, 1306ms total)
T0348 001:811 JLINK_ReadReg(R0)  returns 0x00000000 (0000ms, 1306ms total)
T0348 001:812 JLINK_WriteReg(R0, 0x08003000)  returns 0x00 (0000ms, 1306ms total)
T0348 001:812 JLINK_WriteReg(R1, 0x00000800)  returns 0x00 (0000ms, 1306ms total)
T0348 001:812 JLINK_WriteReg(R2, 0x000000FF)  returns 0x00 (0000ms, 1306ms total)
T0348 001:812 JLINK_WriteReg(R3, 0x00000000)  returns 0x00 (0000ms, 1306ms total)
T0348 001:812 JLINK_WriteReg(R4, 0x00000000)  returns 0x00 (0000ms, 1306ms total)
T0348 001:812 JLINK_WriteReg(R5, 0x00000000)  returns 0x00 (0000ms, 1306ms total)
T0348 001:812 JLINK_WriteReg(R6, 0x00000000)  returns 0x00 (0000ms, 1306ms total)
T0348 001:812 JLINK_WriteReg(R7, 0x00000000)  returns 0x00 (0000ms, 1306ms total)
T0348 001:812 JLINK_WriteReg(R8, 0x00000000)  returns 0x00 (0000ms, 1306ms total)
T0348 001:812 JLINK_WriteReg(R9, 0x20000160)  returns 0x00 (0000ms, 1306ms total)
T0348 001:812 JLINK_WriteReg(R10, 0x00000000)  returns 0x00 (0000ms, 1306ms total)
T0348 001:812 JLINK_WriteReg(R11, 0x00000000)  returns 0x00 (0000ms, 1306ms total)
T0348 001:812 JLINK_WriteReg(R12, 0x00000000)  returns 0x00 (0000ms, 1306ms total)
T0348 001:812 JLINK_WriteReg(R13, 0x20000800)  returns 0x00 (0000ms, 1306ms total)
T0348 001:812 JLINK_WriteReg(R14, 0x20000001)  returns 0x00 (0000ms, 1306ms total)
T0348 001:812 JLINK_WriteReg(R15, 0x20000020)  returns 0x00 (0000ms, 1306ms total)
T0348 001:812 JLINK_WriteReg(XPSR, 0x01000000)  returns 0x00 (0000ms, 1306ms total)
T0348 001:812 JLINK_WriteReg(MSP, 0x20000800)  returns 0x00 (0000ms, 1306ms total)
T0348 001:812 JLINK_WriteReg(PSP, 0x20000800)  returns 0x00 (0000ms, 1306ms total)
T0348 001:812 JLINK_WriteReg(CFBP, 0x00000000)  returns 0x00 (0000ms, 1306ms total)
T0348 001:812 JLINK_SetBPEx(Addr = 0x20000000, Type = 0xFFFFFFF2)  returns 0x0000000E (0000ms, 1306ms total)
T0348 001:812 JLINK_Go() -- CPU_WriteMem(4 bytes @ 0xE0002008) -- CPU_WriteMem(4 bytes @ 0xE000200C) -- CPU_WriteMem(4 bytes @ 0xE0002010) -- CPU_WriteMem(4 bytes @ 0xE0002014) -- CPU_WriteMem(4 bytes @ 0xE0002018) -- CPU_WriteMem(4 bytes @ 0xE000201C) >0x310 JTAG> >0x218 JTAG> >0x218 JTAG> >0x218 JTAG> >0x218 JTAG> >0x240 JTAG> >0x240 JTAG> (0019ms, 1306ms total)
T0348 001:831 JLINK_IsHalted() >0x198 JTAG> >0x17A8 JTAG> -- CPU_ReadMem(2 bytes @ 0x20000000)  returns TRUE (0008ms, 1325ms total)
T0348 001:839 JLINK_ReadReg(R15)  returns 0x20000000 (0000ms, 1325ms total)
T0348 001:839 JLINK_ClrBPEx(BPHandle = 0x0000000E)  returns 0x00 (0001ms, 1325ms total)
T0348 001:840 JLINK_ReadReg(R0)  returns 0x00000001 (0000ms, 1326ms total)
T0348 001:840 JLINK_WriteReg(R0, 0x08003000)  returns 0x00 (0000ms, 1326ms total)
T0348 001:840 JLINK_WriteReg(R1, 0x00000800)  returns 0x00 (0000ms, 1326ms total)
T0348 001:840 JLINK_WriteReg(R2, 0x000000FF)  returns 0x00 (0000ms, 1326ms total)
T0348 001:840 JLINK_WriteReg(R3, 0x00000000)  returns 0x00 (0000ms, 1326ms total)
T0348 001:840 JLINK_WriteReg(R4, 0x00000000)  returns 0x00 (0000ms, 1326ms total)
T0348 001:840 JLINK_WriteReg(R5, 0x00000000)  returns 0x00 (0000ms, 1326ms total)
T0348 001:840 JLINK_WriteReg(R6, 0x00000000)  returns 0x00 (0000ms, 1326ms total)
T0348 001:840 JLINK_WriteReg(R7, 0x00000000)  returns 0x00 (0000ms, 1326ms total)
T0348 001:840 JLINK_WriteReg(R8, 0x00000000)  returns 0x00 (0000ms, 1326ms total)
T0348 001:840 JLINK_WriteReg(R9, 0x20000160)  returns 0x00 (0000ms, 1326ms total)
T0348 001:840 JLINK_WriteReg(R10, 0x00000000)  returns 0x00 (0000ms, 1326ms total)
T0348 001:840 JLINK_WriteReg(R11, 0x00000000)  returns 0x00 (0000ms, 1326ms total)
T0348 001:840 JLINK_WriteReg(R12, 0x00000000)  returns 0x00 (0000ms, 1326ms total)
T0348 001:840 JLINK_WriteReg(R13, 0x20000800)  returns 0x00 (0000ms, 1326ms total)
T0348 001:840 JLINK_WriteReg(R14, 0x20000001)  returns 0x00 (0000ms, 1326ms total)
T0348 001:840 JLINK_WriteReg(R15, 0x200000B6)  returns 0x00 (0000ms, 1326ms total)
T0348 001:840 JLINK_WriteReg(XPSR, 0x01000000)  returns 0x00 (0000ms, 1326ms total)
T0348 001:840 JLINK_WriteReg(MSP, 0x20000800)  returns 0x00 (0000ms, 1326ms total)
T0348 001:840 JLINK_WriteReg(PSP, 0x20000800)  returns 0x00 (0000ms, 1326ms total)
T0348 001:840 JLINK_WriteReg(CFBP, 0x00000000)  returns 0x00 (0000ms, 1326ms total)
T0348 001:840 JLINK_SetBPEx(Addr = 0x20000000, Type = 0xFFFFFFF2)  returns 0x0000000F (0000ms, 1326ms total)
T0348 001:840 JLINK_Go() -- CPU_WriteMem(4 bytes @ 0xE0002008) -- CPU_WriteMem(4 bytes @ 0xE000200C) -- CPU_WriteMem(4 bytes @ 0xE0002010) -- CPU_WriteMem(4 bytes @ 0xE0002014) -- CPU_WriteMem(4 bytes @ 0xE0002018) -- CPU_WriteMem(4 bytes @ 0xE000201C) >0x310 JTAG> >0x218 JTAG> >0x218 JTAG> >0x218 JTAG> >0x240 JTAG> >0x240 JTAG> (0017ms, 1326ms total)
T0348 001:857 JLINK_IsHalted() >0x198 JTAG>  returns FALSE (0001ms, 1343ms total)
T0348 001:908 JLINK_IsHalted() >0x198 JTAG> >0x17A8 JTAG> -- CPU_ReadMem(2 bytes @ 0x20000000)  returns TRUE (0008ms, 1343ms total)
T0348 001:916 JLINK_ReadReg(R15)  returns 0x20000000 (0000ms, 1343ms total)
T0348 001:916 JLINK_ClrBPEx(BPHandle = 0x0000000F)  returns 0x00 (0000ms, 1343ms total)
T0348 001:916 JLINK_ReadReg(R0)  returns 0x00000000 (0000ms, 1343ms total)
T0348 001:917 JLINK_WriteReg(R0, 0x08003800)  returns 0x00 (0000ms, 1343ms total)
T0348 001:919 JLINK_WriteReg(R1, 0x00000800)  returns 0x00 (0000ms, 1343ms total)
T0348 001:919 JLINK_WriteReg(R2, 0x000000FF)  returns 0x00 (0000ms, 1343ms total)
T0348 001:919 JLINK_WriteReg(R3, 0x00000000)  returns 0x00 (0000ms, 1343ms total)
T0348 001:919 JLINK_WriteReg(R4, 0x00000000)  returns 0x00 (0000ms, 1343ms total)
T0348 001:919 JLINK_WriteReg(R5, 0x00000000)  returns 0x00 (0000ms, 1343ms total)
T0348 001:919 JLINK_WriteReg(R6, 0x00000000)  returns 0x00 (0000ms, 1343ms total)
T0348 001:919 JLINK_WriteReg(R7, 0x00000000)  returns 0x00 (0000ms, 1343ms total)
T0348 001:919 JLINK_WriteReg(R8, 0x00000000)  returns 0x00 (0000ms, 1343ms total)
T0348 001:919 JLINK_WriteReg(R9, 0x20000160)  returns 0x00 (0000ms, 1343ms total)
T0348 001:919 JLINK_WriteReg(R10, 0x00000000)  returns 0x00 (0000ms, 1343ms total)
T0348 001:919 JLINK_WriteReg(R11, 0x00000000)  returns 0x00 (0000ms, 1343ms total)
T0348 001:919 JLINK_WriteReg(R12, 0x00000000)  returns 0x00 (0000ms, 1343ms total)
T0348 001:919 JLINK_WriteReg(R13, 0x20000800)  returns 0x00 (0000ms, 1343ms total)
T0348 001:919 JLINK_WriteReg(R14, 0x20000001)  returns 0x00 (0000ms, 1343ms total)
T0348 001:919 JLINK_WriteReg(R15, 0x20000020)  returns 0x00 (0000ms, 1343ms total)
T0348 001:919 JLINK_WriteReg(XPSR, 0x01000000)  returns 0x00 (0000ms, 1343ms total)
T0348 001:919 JLINK_WriteReg(MSP, 0x20000800)  returns 0x00 (0000ms, 1343ms total)
T0348 001:919 JLINK_WriteReg(PSP, 0x20000800)  returns 0x00 (0000ms, 1343ms total)
T0348 001:919 JLINK_WriteReg(CFBP, 0x00000000)  returns 0x00 (0000ms, 1343ms total)
T0348 001:919 JLINK_SetBPEx(Addr = 0x20000000, Type = 0xFFFFFFF2)  returns 0x00000010 (0000ms, 1343ms total)
T0348 001:919 JLINK_Go() -- CPU_WriteMem(4 bytes @ 0xE0002008) -- CPU_WriteMem(4 bytes @ 0xE000200C) -- CPU_WriteMem(4 bytes @ 0xE0002010) -- CPU_WriteMem(4 bytes @ 0xE0002014) -- CPU_WriteMem(4 bytes @ 0xE0002018) -- CPU_WriteMem(4 bytes @ 0xE000201C) >0x310 JTAG> >0x218 JTAG> >0x218 JTAG> >0x218 JTAG> >0x218 JTAG> >0x240 JTAG> >0x240 JTAG> (0018ms, 1343ms total)
T0348 001:937 JLINK_IsHalted() >0x198 JTAG> >0x17A8 JTAG> -- CPU_ReadMem(2 bytes @ 0x20000000)  returns TRUE (0008ms, 1361ms total)
T0348 001:945 JLINK_ReadReg(R15)  returns 0x20000000 (0000ms, 1361ms total)
T0348 001:945 JLINK_ClrBPEx(BPHandle = 0x00000010)  returns 0x00 (0000ms, 1361ms total)
T0348 001:945 JLINK_ReadReg(R0)  returns 0x00000001 (0000ms, 1361ms total)
T0348 001:945 JLINK_WriteReg(R0, 0x08003800)  returns 0x00 (0000ms, 1361ms total)
T0348 001:945 JLINK_WriteReg(R1, 0x00000800)  returns 0x00 (0000ms, 1361ms total)
T0348 001:945 JLINK_WriteReg(R2, 0x000000FF)  returns 0x00 (0000ms, 1361ms total)
T0348 001:945 JLINK_WriteReg(R3, 0x00000000)  returns 0x00 (0000ms, 1361ms total)
T0348 001:945 JLINK_WriteReg(R4, 0x00000000)  returns 0x00 (0000ms, 1361ms total)
T0348 001:945 JLINK_WriteReg(R5, 0x00000000)  returns 0x00 (0001ms, 1361ms total)
T0348 001:946 JLINK_WriteReg(R6, 0x00000000)  returns 0x00 (0000ms, 1362ms total)
T0348 001:946 JLINK_WriteReg(R7, 0x00000000)  returns 0x00 (0000ms, 1362ms total)
T0348 001:946 JLINK_WriteReg(R8, 0x00000000)  returns 0x00 (0000ms, 1362ms total)
T0348 001:946 JLINK_WriteReg(R9, 0x20000160)  returns 0x00 (0000ms, 1362ms total)
T0348 001:946 JLINK_WriteReg(R10, 0x00000000)  returns 0x00 (0000ms, 1362ms total)
T0348 001:946 JLINK_WriteReg(R11, 0x00000000)  returns 0x00 (0000ms, 1362ms total)
T0348 001:946 JLINK_WriteReg(R12, 0x00000000)  returns 0x00 (0000ms, 1362ms total)
T0348 001:946 JLINK_WriteReg(R13, 0x20000800)  returns 0x00 (0000ms, 1362ms total)
T0348 001:946 JLINK_WriteReg(R14, 0x20000001)  returns 0x00 (0000ms, 1362ms total)
T0348 001:946 JLINK_WriteReg(R15, 0x200000B6)  returns 0x00 (0000ms, 1362ms total)
T0348 001:946 JLINK_WriteReg(XPSR, 0x01000000)  returns 0x00 (0000ms, 1362ms total)
T0348 001:946 JLINK_WriteReg(MSP, 0x20000800)  returns 0x00 (0000ms, 1362ms total)
T0348 001:946 JLINK_WriteReg(PSP, 0x20000800)  returns 0x00 (0000ms, 1362ms total)
T0348 001:946 JLINK_WriteReg(CFBP, 0x00000000)  returns 0x00 (0000ms, 1362ms total)
T0348 001:946 JLINK_SetBPEx(Addr = 0x20000000, Type = 0xFFFFFFF2)  returns 0x00000011 (0000ms, 1362ms total)
T0348 001:946 JLINK_Go() -- CPU_WriteMem(4 bytes @ 0xE0002008) -- CPU_WriteMem(4 bytes @ 0xE000200C) -- CPU_WriteMem(4 bytes @ 0xE0002010) -- CPU_WriteMem(4 bytes @ 0xE0002014) -- CPU_WriteMem(4 bytes @ 0xE0002018) -- CPU_WriteMem(4 bytes @ 0xE000201C) >0x310 JTAG> >0x218 JTAG> >0x218 JTAG> >0x218 JTAG> >0x240 JTAG> >0x240 JTAG> (0019ms, 1362ms total)
T0348 001:965 JLINK_IsHalted() >0x198 JTAG>  returns FALSE (0001ms, 1381ms total)
T0348 002:017 JLINK_IsHalted() >0x198 JTAG> >0x17A8 JTAG> -- CPU_ReadMem(2 bytes @ 0x20000000)  returns TRUE (0008ms, 1381ms total)
T0348 002:026 JLINK_ReadReg(R15)  returns 0x20000000 (0001ms, 1381ms total)
T0348 002:027 JLINK_ClrBPEx(BPHandle = 0x00000011)  returns 0x00 (0000ms, 1382ms total)
T0348 002:027 JLINK_ReadReg(R0)  returns 0x00000000 (0000ms, 1382ms total)
T0348 002:027 JLINK_WriteReg(R0, 0x08004000)  returns 0x00 (0000ms, 1382ms total)
T0348 002:027 JLINK_WriteReg(R1, 0x00000800)  returns 0x00 (0000ms, 1382ms total)
T0348 002:027 JLINK_WriteReg(R2, 0x000000FF)  returns 0x00 (0000ms, 1382ms total)
T0348 002:027 JLINK_WriteReg(R3, 0x00000000)  returns 0x00 (0000ms, 1382ms total)
T0348 002:027 JLINK_WriteReg(R4, 0x00000000)  returns 0x00 (0000ms, 1382ms total)
T0348 002:028 JLINK_WriteReg(R5, 0x00000000)  returns 0x00 (0000ms, 1383ms total)
T0348 002:028 JLINK_WriteReg(R6, 0x00000000)  returns 0x00 (0000ms, 1383ms total)
